
**** 02/25/20 12:04:07 ********* PSpice 9.2 (Mar 2000) ******** ID# 1 ********

 * C:\Users\Lapunik\OneDrive\Dokumenty\PSpice\ENZ\Schematic_1_cvi_Zatezovaci_carakteristika.sch


 ****     CIRCUIT DESCRIPTION


******************************************************************************




* Schematics Version 9.2
* Tue Feb 25 12:04:07 2020


.PARAM         zatez={5.1/2} 

** Analysis setup **
.DC LIN PARAM zatez 100 1m 1m 
.OP 


* From [PSPICE NETLIST] section of C:\Program Files\Orcad\PSpice\PSpice.ini:
.lib "nom.lib"

.INC "Schematic_1_cvi_Zatezovaci_carakteristika.net"



**** INCLUDING Schematic_1_cvi_Zatezovaci_carakteristika.net ****
* Schematics Netlist *



R_R3         0 $N_0001  {zatez}  
D_D2         0 $N_0001 D02CZ5_1 
V_V2         $N_0002 0 32
R_R5         $N_0002 $N_0001  13  

**** RESUMING Schematic_1_cvi_Zatezovaci_carakteristika.cir ****
.PROBE V(*) I(*) W(*) D(*) NOISE(*) 


.END

**** 02/25/20 12:04:07 ********* PSpice 9.2 (Mar 2000) ******** ID# 1 ********

 * C:\Users\Lapunik\OneDrive\Dokumenty\PSpice\ENZ\Schematic_1_cvi_Zatezovaci_carakteristika.sch


 ****     Diode MODEL PARAMETERS


******************************************************************************




               D02CZ5_1        
          IS    9.086000E-12 
           N    1.395        
         ISR  664.700000E-09 
         IKF     .11         
          BV    5.198        
         IBV     .1478       
          TT    5.000000E-09 
         CJO  406.200000E-12 
          VJ    5            
           M    1.548        


**** 02/25/20 12:04:07 ********* PSpice 9.2 (Mar 2000) ******** ID# 1 ********

 * C:\Users\Lapunik\OneDrive\Dokumenty\PSpice\ENZ\Schematic_1_cvi_Zatezovaci_carakteristika.sch


 ****     SMALL SIGNAL BIAS SOLUTION       TEMPERATURE =   27.000 DEG C


******************************************************************************



 NODE   VOLTAGE     NODE   VOLTAGE     NODE   VOLTAGE     NODE   VOLTAGE


($N_0001)    5.1638                   ($N_0002)   32.0000                   




    VOLTAGE SOURCE CURRENTS
    NAME         CURRENT

    V_V2        -2.064E+00

    TOTAL POWER DISSIPATION   6.61E+01  WATTS


**** 02/25/20 12:04:07 ********* PSpice 9.2 (Mar 2000) ******** ID# 1 ********

 * C:\Users\Lapunik\OneDrive\Dokumenty\PSpice\ENZ\Schematic_1_cvi_Zatezovaci_carakteristika.sch


 ****     OPERATING POINT INFORMATION      TEMPERATURE =   27.000 DEG C


******************************************************************************






**** DIODES


NAME         D_D2      
MODEL        D02CZ5_1  
ID          -3.93E-02 
VD          -5.16E+00 
REQ          6.58E-01 
CAP          7.74E-09 

          JOB CONCLUDED

          TOTAL JOB TIME           12.59
