
**** 03/12/20 17:30:31 ********* PSpice 9.2 (Mar 2000) ******** ID# 1 ********

 * C:\Users\Lapunik\OneDrive\Dokumenty\PSpice\ENZ\Semestralka_vstup.sch


 ****     CIRCUIT DESCRIPTION


******************************************************************************




* Schematics Version 9.2
* Thu Mar 12 17:30:26 2020



** Analysis setup **
.tran 1u 1m 0 1u
.OP 


* From [PSPICE NETLIST] section of C:\Program Files\Orcad\PSpice\PSpice.ini:
.lib "nom.lib"

.INC "Semestralka_vstup.net"



**** INCLUDING Semestralka_vstup.net ****
* Schematics Netlist *



D_D8         $N_0001 usm D1N4148 
D_D7         $N_0002 usm D1N4148 
V_V1         $N_0002 $N_0001  
+PULSE +22 -22 0 0 0 52u 104u
D_D9         0 $N_0002 D1N4148 
D_D10         0 $N_0001 D1N4148 
X_U2         usm $N_0003 0 LM7805C
D_D12         $N_0003 Vcc D1N5819 
D_D13         $N_0003 Vcc D1N5819 
R_R4         0 Vcc  50k  
C_C3         0 $N_0003  0.1u  
C_C2         0 $N_0003  470u  
C_C4         0 Vcc  0.1u  
C_C5         0 Vcc  0.1u  
C_C6         0 Vcc  470u  
C_C1         0 usm  0.1u  
R_R6         0 $N_0004  1k  
X_U3A         $N_0004 AD $N_0005 0 AD AD704/AD
V_V4         $N_0005 0 3.3V
R_R7         0 AD  50k  
R_R5         $N_0004 usm  5k  

**** RESUMING Semestralka_vstup.cir ****
.PROBE V(*) I(*) W(*) D(*) NOISE(*) 


.END

**** 03/12/20 17:30:31 ********* PSpice 9.2 (Mar 2000) ******** ID# 1 ********

 * C:\Users\Lapunik\OneDrive\Dokumenty\PSpice\ENZ\Semestralka_vstup.sch


 ****     Diode MODEL PARAMETERS


******************************************************************************




               D1N4148         D1N5819         X_U3A.DX        X_U3A.DY        
          IS    2.682000E-09    2.835000E-06    1.000000E-15    1.000000E-15 
           N    1.836                                                        
         ISR    1.565000E-09   16.980000E-06                                 
         IKF     .04417          .3227                                       
          BV  100                                              50            
         IBV  100.000000E-06                                                 
          RS     .5664           .04712                                      
          TT   11.540000E-09                                                 
         CJO    4.000000E-12  302.500000E-12                                 
          VJ     .5              .75                                         
           M     .3333           .7206                                       
         XTI                    0                                            


               X_U2.x1.Dlim    X_U2.x1.Dz      
          IS   10.000000E-15   50.000000E-15 
          BV                    7.11         
         IBV                   50.000000E-09 
          RS                    3            
          VJ     .7                          


**** 03/12/20 17:30:31 ********* PSpice 9.2 (Mar 2000) ******** ID# 1 ********

 * C:\Users\Lapunik\OneDrive\Dokumenty\PSpice\ENZ\Semestralka_vstup.sch


 ****     BJT MODEL PARAMETERS


******************************************************************************




               X_U3A.QX        X_U2.x1.Npn1    
               NPN             NPN             
          IS  100.000000E-18   10.000000E-15 
          BF  625.000000E+03   50            
          NF    1               1            
          BR    1               1            
          NR    1               1            
          CN    2.42            2.42         
           D     .87             .87         


**** 03/12/20 17:30:31 ********* PSpice 9.2 (Mar 2000) ******** ID# 1 ********

 * C:\Users\Lapunik\OneDrive\Dokumenty\PSpice\ENZ\Semestralka_vstup.sch


 ****     Voltage Controlled Switch MODEL PARAMETERS


******************************************************************************




               X_U2.x1.Sbg1    
         RON    1            
        ROFF    1.000000E+06 
         VON    3.7          
        VOFF    3            


**** 03/12/20 17:30:31 ********* PSpice 9.2 (Mar 2000) ******** ID# 1 ********

 * C:\Users\Lapunik\OneDrive\Dokumenty\PSpice\ENZ\Semestralka_vstup.sch


 ****     SMALL SIGNAL BIAS SOLUTION       TEMPERATURE =   27.000 DEG C


******************************************************************************



 NODE   VOLTAGE     NODE   VOLTAGE     NODE   VOLTAGE     NODE   VOLTAGE


(   AD)    2.6411  (  usm)   20.5700  (  Vcc)    4.9440  ($N_0001)    -.7151    

($N_0002)   21.2850                   ($N_0003)    4.9979                       

($N_0004)    3.3060                   ($N_0005)    3.3000                       

(X_U3A.3)    2.9736                   (X_U3A.4)    2.5901                       

(X_U3A.5)    3.3000                   (X_U3A.6)    3.2469                       

(X_U3A.9)    3.3061                   (X_U3A.10)    2.5901                      

(X_U3A.11)    2.5914                  (X_U3A.12)    2.6176                      

(X_U3A.13)    1.9625                  (X_U3A.14)    1.3375                      

(X_U3A.15)    1.9825                  (X_U3A.16)    1.6500                      

(X_U3A.17)    2.6176                  (X_U3A.18)    1.6500                      

(X_U3A.19) 967.6E+03                  (X_U3A.20)    2.6176                      

(X_U3A.21)    2.6176                  (X_U3A.22)    1.6500                      

(X_U3A.23)    2.6645                  (X_U3A.24)   50.3380                      

(X_U3A.25)    5.7911                  (X_U3A.26)    -.5089                      

(X_U3A.27)    2.6411                  (X_U3A.98)    1.6500                      

(X_U2.x1.4)    6.2674                 (X_U2.x1.5)    6.2597                     

(X_U2.x1.6)    5.6294                 (X_U2.x1.7)    4.9992                     

(X_U2.x1.8)    4.9979                 (X_U2.x1.9)    4.9979                     

(X_U2.x1.55)    5.2306                (X_U2.x1.56)   13.2070                    

(X_U2.x1.100)    7.4000               (X_U2.x1.101)    3.7012                   

(X_U2.x1.102)   20.5700               (X_U2.x1.105)    6.2674                   

(X_U2.x1.106)    6.2674               (X_U2.x1.107)    1.0000                   

(X_U2.x1.108)   19.5700               (X_U2.x1.200) 1665.0000               




    VOLTAGE SOURCE CURRENTS
    NAME         CURRENT

    V_V1        -8.763E-03
    V_V4        -2.617E-04
    X_U3A.V1    -1.000E-04
    X_U3A.V2     1.281E-12
    X_U3A.VSC1  -3.174E-12
    X_U3A.VSC2  -3.128E-12
    X_U2.x1.Vbg  -3.699E+00
    X_U2.x1.Vgainf  -1.665E+03
    X_U2.x1.Vl1   1.331E-11
    X_U2.x1.Vl2   5.277E-12

    TOTAL POWER DISSIPATION   2.77E+06  WATTS


**** 03/12/20 17:30:31 ********* PSpice 9.2 (Mar 2000) ******** ID# 1 ********

 * C:\Users\Lapunik\OneDrive\Dokumenty\PSpice\ENZ\Semestralka_vstup.sch


 ****     OPERATING POINT INFORMATION      TEMPERATURE =   27.000 DEG C


******************************************************************************






**** VOLTAGE-CONTROLLED CURRENT SOURCES


NAME         X_U3A.G1    X_U3A.GZP1  X_U3A.G2    X_U3A.GO1   X_U3A.GO2 
I-SOURCE     1.000E-04   9.676E-07   9.676E-07   4.694E-05  -4.694E-05

NAME         X_U3A.GO3   X_U3A.GO4   X_U2.x1.Gq
I-SOURCE     1.365E-03   5.235E-03   3.114E-04


**** VOLTAGE-CONTROLLED VOLTAGE SOURCES


NAME         X_U3A.EOS   X_U3A.EREF  X_U3A.ECM   X_U3A.ENZ 
V-SOURCE     3.033E-05   1.650E+00   3.325E-01   9.676E+05
I-SOURCE    -1.467E-04  -1.000E-04  -3.325E-07  -9.676E+05

NAME         X_U2.x1.Ebg             X_U2.x1.Eopamp        
V-SOURCE     2.057E+01               6.267E+00            
I-SOURCE    -2.410E-03               8.035E-12            

NAME         X_U2.x1.Efb           
V-SOURCE     1.430E+01            
I-SOURCE     7.672E-06            


**** DIODES


NAME         D_D8        D_D7        D_D9        D_D10       D_D12     
MODEL        D1N4148     D1N4148     D1N4148     D1N4148     D1N5819   
ID          -8.19E-09    8.76E-03   -8.19E-09    8.76E-03    4.94E-05 
VD          -2.13E+01    7.15E-01   -2.13E+01    7.15E-01    5.38E-02 
REQ          2.37E+10    5.83E+00    2.37E+10    5.83E+00    5.78E+02 
CAP          1.14E-12    1.99E-09    1.14E-12    1.99E-09    3.19E-10 

NAME         D_D13       X_U3A.D1    X_U3A.D2    X_U3A.D3    X_U3A.D4  
MODEL        D1N5819     X_U3A.DX    X_U3A.DX    X_U3A.DX    X_U3A.DX  
ID           4.94E-05   -6.66E-13    1.47E-04    1.00E-04   -1.28E-12 
VD           5.38E-02   -6.65E-01    6.65E-01    6.55E-01   -1.28E+00 
REQ          5.78E+02    1.00E+12    1.76E+02    2.59E+02    1.00E+12 
CAP          3.19E-10    0.00E+00    0.00E+00    0.00E+00    0.00E+00 

NAME         X_U3A.DO1   X_U3A.DO2   X_U3A.DO3   X_U3A.DO4   X_U3A.DSC1
MODEL        X_U3A.DX    X_U3A.DY    X_U3A.DX    X_U3A.DY    X_U3A.DX  
ID           4.69E-05   -2.67E-12   -4.70E-11   -4.69E-05   -3.17E-12 
VD           6.36E-01   -2.66E+00   -4.70E+01   -5.03E+01   -3.17E+00 
REQ          5.51E+02    1.00E+12    1.00E+12    5.51E+02    1.00E+12 
CAP          0.00E+00    0.00E+00    0.00E+00    0.00E+00    0.00E+00 

NAME         X_U3A.DSC2  X_U2.x1.D1              X_U2.x1.D2            
MODEL        X_U3A.DX    X_U2.x1.Dlim            X_U2.x1.Dlim          
ID          -3.13E-12   -1.33E-11               -5.28E-12             
VD          -3.13E+00   -1.33E+01               -5.27E+00             
REQ          1.00E+12    1.00E+12                1.00E+12             
CAP          0.00E+00    0.00E+00                0.00E+00             

NAME         X_U2.x1.Dz1           
MODEL        X_U2.x1.Dz            
ID          -7.98E-04             
VD          -7.36E+00             
REQ          3.24E+01             
CAP          0.00E+00             


**** BIPOLAR JUNCTION TRANSISTORS


NAME         X_U3A.Q1    X_U3A.Q2    X_U2.x1.Q1            
MODEL        X_U3A.QX    X_U3A.QX    X_U2.x1.Npn1          
IB          -6.59E-13    1.60E-10    7.67E-06             
IC           1.37E-12    1.00E-04    3.84E-04             
VBE          5.10E-02    7.15E-01    6.30E-01             
VBC         -6.59E-01    5.91E-02   -1.43E+01             
VCE          7.10E-01    6.56E-01    1.49E+01             
BETADC      -2.08E+00    6.25E+05    5.00E+01             
GM           2.77E-14    3.87E-03    1.48E-02             
RPI          6.08E+17    1.62E+08    3.37E+03             
RX           0.00E+00    0.00E+00    0.00E+00             
RO           1.00E+12    9.63E+11    1.00E+12             
CBE          0.00E+00    0.00E+00    0.00E+00             
CBC          0.00E+00    0.00E+00    0.00E+00             
CJS          0.00E+00    0.00E+00    0.00E+00             
BETAAC       1.69E+04    6.25E+05    5.00E+01             
CBX/CBX2     0.00E+00    0.00E+00    0.00E+00             
FT/FT2       4.42E+05    6.15E+16    2.36E+17             



NAME         X_U2.x1.Q2              X_U2.x1.Qcl           
MODEL        X_U2.x1.Npn1            X_U2.x1.Npn1          
IB           7.62E-05                5.81E-13             
IC           3.81E-03                8.31E-11             
VBE          6.30E-01                2.33E-01             
VBC         -1.49E+01               -1.03E+00             
VCE          1.56E+01                1.26E+00             
BETADC       5.00E+01                1.43E+02             
GM           1.47E-01                3.12E-09             
RPI          3.39E+02                1.60E+10             
RX           0.00E+00                0.00E+00             
RO           1.00E+12                1.00E+12             
CBE          0.00E+00                0.00E+00             
CBC          0.00E+00                0.00E+00             
CJS          0.00E+00                0.00E+00             
BETAAC       5.00E+01                5.00E+01             
CBX/CBX2     0.00E+00                0.00E+00             
FT/FT2       2.34E+18                4.97E+10             




**** VOLTAGE CONTROLLED SWITCHES


NAME         X_U2.x1.Sbg           
MODEL        X_U2.x1.Sbg1          
I LOAD       3.70E+00             
V LOAD       3.70E+00             
R LOAD       1.00E+00             
V CTRL       2.06E+01             
**** 03/12/20 17:30:31 ********* PSpice 9.2 (Mar 2000) ******** ID# 1 ********

 * C:\Users\Lapunik\OneDrive\Dokumenty\PSpice\ENZ\Semestralka_vstup.sch


 ****     INITIAL TRANSIENT SOLUTION       TEMPERATURE =   27.000 DEG C


******************************************************************************



 NODE   VOLTAGE     NODE   VOLTAGE     NODE   VOLTAGE     NODE   VOLTAGE


(   AD)    2.6411  (  usm)   20.5700  (  Vcc)    4.9440  ($N_0001)    -.7151    

($N_0002)   21.2850                   ($N_0003)    4.9979                       

($N_0004)    3.3060                   ($N_0005)    3.3000                       

(X_U3A.3)    2.9736                   (X_U3A.4)    2.5901                       

(X_U3A.5)    3.3000                   (X_U3A.6)    3.2469                       

(X_U3A.9)    3.3061                   (X_U3A.10)    2.5901                      

(X_U3A.11)    2.5914                  (X_U3A.12)    2.6176                      

(X_U3A.13)    1.9625                  (X_U3A.14)    1.3375                      

(X_U3A.15)    1.9825                  (X_U3A.16)    1.6500                      

(X_U3A.17)    2.6176                  (X_U3A.18)    1.6500                      

(X_U3A.19) 967.6E+03                  (X_U3A.20)    2.6176                      

(X_U3A.21)    2.6176                  (X_U3A.22)    1.6500                      

(X_U3A.23)    2.6645                  (X_U3A.24)   50.3380                      

(X_U3A.25)    5.7911                  (X_U3A.26)    -.5089                      

(X_U3A.27)    2.6411                  (X_U3A.98)    1.6500                      

(X_U2.x1.4)    6.2674                 (X_U2.x1.5)    6.2597                     

(X_U2.x1.6)    5.6294                 (X_U2.x1.7)    4.9992                     

(X_U2.x1.8)    4.9979                 (X_U2.x1.9)    4.9979                     

(X_U2.x1.55)    5.2306                (X_U2.x1.56)   13.2070                    

(X_U2.x1.100)    7.4000               (X_U2.x1.101)    3.7012                   

(X_U2.x1.102)   20.5700               (X_U2.x1.105)    6.2674                   

(X_U2.x1.106)    6.2674               (X_U2.x1.107)    1.0000                   

(X_U2.x1.108)   19.5700               (X_U2.x1.200) 1665.0000               




    VOLTAGE SOURCE CURRENTS
    NAME         CURRENT

    V_V1        -8.763E-03
    V_V4        -2.617E-04
    X_U3A.V1    -1.000E-04
    X_U3A.V2     1.281E-12
    X_U3A.VSC1  -3.174E-12
    X_U3A.VSC2  -3.128E-12
    X_U2.x1.Vbg  -3.699E+00
    X_U2.x1.Vgainf  -1.665E+03
    X_U2.x1.Vl1   1.331E-11
    X_U2.x1.Vl2   5.277E-12

    TOTAL POWER DISSIPATION   2.77E+06  WATTS



          JOB CONCLUDED

          TOTAL JOB TIME             .36
