
**** 10/10/19 11:43:31 ********* PSpice 9.2 (Mar 2000) ******** ID# 1 ********

 * C:\Users\Lapunik\Dropbox\PSpice\Schematics\Chyby_Druhy_Schematic.sch


 ****     CIRCUIT DESCRIPTION


******************************************************************************




* Schematics Version 9.2
* Thu Oct 10 11:43:27 2019



** Analysis setup **
.tran 10ms 10ms 0 10u
.OP 


* From [PSPICE NETLIST] section of C:\Program Files\Orcad\PSpice\PSpice.ini:
.lib "nom.lib"

.INC "Chyby_Druhy_Schematic.net"



**** INCLUDING Chyby_Druhy_Schematic.net ****
* Schematics Netlist *



V_V1         $N_0001 0 10V
V_V2         $N_0002 0 15V
R_R1         $N_0001 $N_0002  1m  
L_L1         0 $N_0003  10uH  
R_R3         $N_0004 $N_0003  10m  
V_V3         $N_0004 0 8V
I_I1         0 $N_0005 DC 1A  
I_I2         $N_0005 0 DC 1A  
R_R5         0 $N_0005  10MEG  
R_R6         0 $N_0006  1k  
C_C2         $N_0007 $N_0006  0.5n  
R_R7         0 $N_0008  1k  
C_C3         $N_0009 $N_0008  1n  
C_C4         $N_0010 $N_0009  1n  
R_R8         0 $N_0009  10MEG  
V_V7         $N_0007 0 5V
V_V9         $N_0010 0 6

**** RESUMING Chyby_Druhy_Schematic.cir ****
.PROBE V(*) I(*) W(*) D(*) NOISE(*) 


.END

**** 10/10/19 11:43:31 ********* PSpice 9.2 (Mar 2000) ******** ID# 1 ********

 * C:\Users\Lapunik\Dropbox\PSpice\Schematics\Chyby_Druhy_Schematic.sch


 ****     SMALL SIGNAL BIAS SOLUTION       TEMPERATURE =   27.000 DEG C


******************************************************************************



 NODE   VOLTAGE     NODE   VOLTAGE     NODE   VOLTAGE     NODE   VOLTAGE


($N_0001)   10.0000                   ($N_0002)   15.0000                       

($N_0003)    0.0000                   ($N_0004)    8.0000                       

($N_0005)    0.0000                   ($N_0006)    0.0000                       

($N_0007)    5.0000                   ($N_0008)    0.0000                       

($N_0009)    0.0000                   ($N_0010)    6.0000                   




    VOLTAGE SOURCE CURRENTS
    NAME         CURRENT

    V_V1         5.000E+03
    V_V2        -5.000E+03
    V_V3        -8.000E+02
    V_V7         0.000E+00
    V_V9         0.000E+00

    TOTAL POWER DISSIPATION   3.14E+04  WATTS


**** 10/10/19 11:43:31 ********* PSpice 9.2 (Mar 2000) ******** ID# 1 ********

 * C:\Users\Lapunik\Dropbox\PSpice\Schematics\Chyby_Druhy_Schematic.sch


 ****     OPERATING POINT INFORMATION      TEMPERATURE =   27.000 DEG C


******************************************************************************




**** 10/10/19 11:43:31 ********* PSpice 9.2 (Mar 2000) ******** ID# 1 ********

 * C:\Users\Lapunik\Dropbox\PSpice\Schematics\Chyby_Druhy_Schematic.sch


 ****     INITIAL TRANSIENT SOLUTION       TEMPERATURE =   27.000 DEG C


******************************************************************************



 NODE   VOLTAGE     NODE   VOLTAGE     NODE   VOLTAGE     NODE   VOLTAGE


($N_0001)   10.0000                   ($N_0002)   15.0000                       

($N_0003)    0.0000                   ($N_0004)    8.0000                       

($N_0005)    0.0000                   ($N_0006)    0.0000                       

($N_0007)    5.0000                   ($N_0008)    0.0000                       

($N_0009)    0.0000                   ($N_0010)    6.0000                   




    VOLTAGE SOURCE CURRENTS
    NAME         CURRENT

    V_V1         5.000E+03
    V_V2        -5.000E+03
    V_V3        -8.000E+02
    V_V7         0.000E+00
    V_V9         0.000E+00

    TOTAL POWER DISSIPATION   3.14E+04  WATTS



          JOB CONCLUDED

          TOTAL JOB TIME             .13
