
**** 10/24/19 12:27:50 ********* PSpice 9.2 (Mar 2000) ******** ID# 1 ********

 * C:\Users\Lapunik\Dropbox\PSpice\Schematics\DC_teplotni_analyza_Schematic.sch


 ****     CIRCUIT DESCRIPTION


******************************************************************************




* Schematics Version 9.2
* Thu Oct 24 12:27:50 2019



** Analysis setup **
.DC LIN TEMP -20 100 100m 
.OP 


* From [PSPICE NETLIST] section of C:\Program Files\Orcad\PSpice\PSpice.ini:
.lib "nom.lib"

.INC "DC_teplotni_analyza_Schematic.net"



**** INCLUDING DC_teplotni_analyza_Schematic.net ****
* Schematics Netlist *



Q_Q1         out1 $N_0001 0 Q2N2222
V_V1         $N_0002 0 12
R_R3         0 $N_0001  5.75k  
R_R2         $N_0001 $N_0002  100k  
R_R1         out1 $N_0002  10k  
V_V2         $N_0003 0 12
R_R5         $N_0004 $N_0003  100k  
R_R6         out2 $N_0003  10k  
Q_Q2         out2 $N_0004 $N_0005 Q2N2222
R_R4         0 $N_0004  18.8k  
R_R7         0 $N_0005  2k  

**** RESUMING DC_teplotni_analyza_Schematic.cir ****
.PROBE V(*) I(*) W(*) D(*) NOISE(*) 


.END

**** 10/24/19 12:27:50 ********* PSpice 9.2 (Mar 2000) ******** ID# 1 ********

 * C:\Users\Lapunik\Dropbox\PSpice\Schematics\DC_teplotni_analyza_Schematic.sch


 ****     BJT MODEL PARAMETERS


******************************************************************************




               Q2N2222         
               NPN             
          IS   14.340000E-15 
          BF  255.9          
          NF    1            
         VAF   74.03         
         IKF     .2847       
         ISE   14.340000E-15 
          NE    1.307        
          BR    6.092        
          NR    1            
          RB   10            
          RC    1            
         CJE   22.010000E-12 
         MJE     .377        
         CJC    7.306000E-12 
         MJC     .3416       
          TF  411.100000E-12 
         XTF    3            
         VTF    1.7          
         ITF     .6          
          TR   46.910000E-09 
         XTB    1.5          
          CN    2.42         
           D     .87         


**** 10/24/19 12:27:50 ********* PSpice 9.2 (Mar 2000) ******** ID# 1 ********

 * C:\Users\Lapunik\Dropbox\PSpice\Schematics\DC_teplotni_analyza_Schematic.sch


 ****     SMALL SIGNAL BIAS SOLUTION       TEMPERATURE IS SWEPT


******************************************************************************



 NODE   VOLTAGE     NODE   VOLTAGE     NODE   VOLTAGE     NODE   VOLTAGE


( out1)    6.0222  ( out2)    6.0220  ($N_0001)     .6307                       

($N_0002)   12.0000                   ($N_0003)   12.0000                       

($N_0004)    1.8348                   ($N_0005)    1.2037                   




    VOLTAGE SOURCE CURRENTS
    NAME         CURRENT

    V_V1        -7.115E-04
    V_V2        -6.994E-04

    TOTAL POWER DISSIPATION   1.69E-02  WATTS


**** 10/24/19 12:27:50 ********* PSpice 9.2 (Mar 2000) ******** ID# 1 ********

 * C:\Users\Lapunik\Dropbox\PSpice\Schematics\DC_teplotni_analyza_Schematic.sch


 ****     OPERATING POINT INFORMATION      TEMPERATURE IS SWEPT


******************************************************************************






**** BIPOLAR JUNCTION TRANSISTORS


NAME         Q_Q1        Q_Q2      
MODEL        Q2N2222     Q2N2222   
IB           4.00E-06    4.05E-06 
IC           5.98E-04    5.98E-04 
VBE          6.31E-01    6.31E-01 
VBC         -5.39E+00   -4.19E+00 
VCE          6.02E+00    4.82E+00 
BETADC       1.50E+02    1.47E+02 
GM           2.31E-02    2.31E-02 
RPI          7.24E+03    7.14E+03 
RX           1.00E+01    1.00E+01 
RO           1.33E+05    1.31E+05 
CBE          4.54E-11    4.54E-11 
CBC          3.56E-12    3.84E-12 
CJS          0.00E+00    0.00E+00 
BETAAC       1.67E+02    1.65E+02 
CBX/CBX2     0.00E+00    0.00E+00 
FT/FT2       7.49E+07    7.45E+07 



          JOB CONCLUDED

          TOTAL JOB TIME             .20
