
**** 10/24/19 12:18:02 ********* PSpice 9.2 (Mar 2000) ******** ID# 1 ********

 * C:\Users\Lapunik\Dropbox\PSpice\Schematics\potenciometr_Schematic.sch


 ****     CIRCUIT DESCRIPTION


******************************************************************************




* Schematics Version 9.2
* Thu Oct 24 12:18:02 2019


.PARAM         hodnotaP1=1k nastaveniP1=0.5 

** Analysis setup **
.DC LIN V_V1 0 5 5m 
.STEP  PARAM nastaveniP1 LIST 
+ 0 0.33 0.66 1
.OP 


* From [PSPICE NETLIST] section of C:\Program Files\Orcad\PSpice\PSpice.ini:
.lib "nom.lib"

.INC "potenciometr_Schematic.net"



**** INCLUDING potenciometr_Schematic.net ****
* Schematics Netlist *



R_R2         0 0  1MEG  
V_V1         in 0 10
X_R1    0 in 0 potenciometr_Schematic_R1 

.subckt potenciometr_Schematic_R1 1 2 t  
RT_R1         1 t {({hodnotaP1}*(1-{nastaveniP1}))+.001}
RB_R1         t 2 {({hodnotaP1}*{nastaveniP1})+.001}
.ends potenciometr_Schematic_R1

**** RESUMING potenciometr_Schematic.cir ****
.PROBE V(*) I(*) W(*) D(*) NOISE(*) 


.END

**** 10/24/19 12:18:02 ********* PSpice 9.2 (Mar 2000) ******** ID# 1 ********

 * C:\Users\Lapunik\Dropbox\PSpice\Schematics\potenciometr_Schematic.sch


 ****     SMALL SIGNAL BIAS SOLUTION       TEMPERATURE =   27.000 DEG C

 ****     CURRENT STEP                     PARAM NASTAVENIP1 =    0     


******************************************************************************



 NODE   VOLTAGE     NODE   VOLTAGE     NODE   VOLTAGE     NODE   VOLTAGE


(   in)   10.0000  




    VOLTAGE SOURCE CURRENTS
    NAME         CURRENT

    V_V1        -1.000E+04

    TOTAL POWER DISSIPATION   1.00E+05  WATTS


**** 10/24/19 12:18:02 ********* PSpice 9.2 (Mar 2000) ******** ID# 1 ********

 * C:\Users\Lapunik\Dropbox\PSpice\Schematics\potenciometr_Schematic.sch


 ****     OPERATING POINT INFORMATION      TEMPERATURE =   27.000 DEG C

 ****     CURRENT STEP                     PARAM NASTAVENIP1 =    0     


******************************************************************************




**** 10/24/19 12:18:02 ********* PSpice 9.2 (Mar 2000) ******** ID# 1 ********

 * C:\Users\Lapunik\Dropbox\PSpice\Schematics\potenciometr_Schematic.sch


 ****     SMALL SIGNAL BIAS SOLUTION       TEMPERATURE =   27.000 DEG C

 ****     CURRENT STEP                     PARAM NASTAVENIP1 =     .33  


******************************************************************************



 NODE   VOLTAGE     NODE   VOLTAGE     NODE   VOLTAGE     NODE   VOLTAGE


(   in)   10.0000  




    VOLTAGE SOURCE CURRENTS
    NAME         CURRENT

    V_V1        -3.030E-02

    TOTAL POWER DISSIPATION   3.03E-01  WATTS


**** 10/24/19 12:18:02 ********* PSpice 9.2 (Mar 2000) ******** ID# 1 ********

 * C:\Users\Lapunik\Dropbox\PSpice\Schematics\potenciometr_Schematic.sch


 ****     OPERATING POINT INFORMATION      TEMPERATURE =   27.000 DEG C

 ****     CURRENT STEP                     PARAM NASTAVENIP1 =     .33  


******************************************************************************




**** 10/24/19 12:18:02 ********* PSpice 9.2 (Mar 2000) ******** ID# 1 ********

 * C:\Users\Lapunik\Dropbox\PSpice\Schematics\potenciometr_Schematic.sch


 ****     SMALL SIGNAL BIAS SOLUTION       TEMPERATURE =   27.000 DEG C

 ****     CURRENT STEP                     PARAM NASTAVENIP1 =     .66  


******************************************************************************



 NODE   VOLTAGE     NODE   VOLTAGE     NODE   VOLTAGE     NODE   VOLTAGE


(   in)   10.0000  




    VOLTAGE SOURCE CURRENTS
    NAME         CURRENT

    V_V1        -1.515E-02

    TOTAL POWER DISSIPATION   1.52E-01  WATTS


**** 10/24/19 12:18:02 ********* PSpice 9.2 (Mar 2000) ******** ID# 1 ********

 * C:\Users\Lapunik\Dropbox\PSpice\Schematics\potenciometr_Schematic.sch


 ****     OPERATING POINT INFORMATION      TEMPERATURE =   27.000 DEG C

 ****     CURRENT STEP                     PARAM NASTAVENIP1 =     .66  


******************************************************************************




**** 10/24/19 12:18:02 ********* PSpice 9.2 (Mar 2000) ******** ID# 1 ********

 * C:\Users\Lapunik\Dropbox\PSpice\Schematics\potenciometr_Schematic.sch


 ****     SMALL SIGNAL BIAS SOLUTION       TEMPERATURE =   27.000 DEG C

 ****     CURRENT STEP                     PARAM NASTAVENIP1 =    1     


******************************************************************************



 NODE   VOLTAGE     NODE   VOLTAGE     NODE   VOLTAGE     NODE   VOLTAGE


(   in)   10.0000  




    VOLTAGE SOURCE CURRENTS
    NAME         CURRENT

    V_V1        -1.000E-02

    TOTAL POWER DISSIPATION   1.00E-01  WATTS


**** 10/24/19 12:18:02 ********* PSpice 9.2 (Mar 2000) ******** ID# 1 ********

 * C:\Users\Lapunik\Dropbox\PSpice\Schematics\potenciometr_Schematic.sch


 ****     OPERATING POINT INFORMATION      TEMPERATURE =   27.000 DEG C

 ****     CURRENT STEP                     PARAM NASTAVENIP1 =    1     


******************************************************************************





          JOB CONCLUDED

          TOTAL JOB TIME             .72
