
**** 10/17/19 12:20:15 ********* PSpice 9.2 (Mar 2000) ******** ID# 1 ********

 * C:\Users\Lapunik\Dropbox\PSpice\Schematics\prechodak_schematic.sch


 ****     CIRCUIT DESCRIPTION


******************************************************************************




* Schematics Version 9.2
* Thu Oct 17 12:20:15 2019



** Analysis setup **
.tran 10u 10m 0 10u
.OP 


* From [PSPICE NETLIST] section of C:\Program Files\Orcad\PSpice\PSpice.ini:
.lib "nom.lib"

.INC "prechodak_schematic.net"



**** INCLUDING prechodak_schematic.net ****
* Schematics Netlist *



V_V1         $N_0001 0 15V
C_C1         0 $N_0002  1u IC=0 
R_R1         $N_0001 $N_0003  1k  
X_U1         $N_0003 $N_0002 Sw_tClose PARAMS: tClose=2m ttran=1u Rclosed=0.01
+  Ropen=1Meg

**** RESUMING prechodak_schematic.cir ****
.PROBE V(*) I(*) W(*) D(*) NOISE(*) 


.END

**** 10/17/19 12:20:15 ********* PSpice 9.2 (Mar 2000) ******** ID# 1 ********

 * C:\Users\Lapunik\Dropbox\PSpice\Schematics\prechodak_schematic.sch


 ****     Voltage Controlled Switch MODEL PARAMETERS


******************************************************************************




               X_U1.Smod       
         RON     .01         
        ROFF    1.000000E+06 
         VON    1            
        VOFF    0            


**** 10/17/19 12:20:15 ********* PSpice 9.2 (Mar 2000) ******** ID# 1 ********

 * C:\Users\Lapunik\Dropbox\PSpice\Schematics\prechodak_schematic.sch


 ****     SMALL SIGNAL BIAS SOLUTION       TEMPERATURE =   27.000 DEG C


******************************************************************************



 NODE   VOLTAGE     NODE   VOLTAGE     NODE   VOLTAGE     NODE   VOLTAGE


(X_U1.3)    0.0000 ($N_0001)   15.0000                   ($N_0002) 29.97E-09    

($N_0003)   14.9850                   




    VOLTAGE SOURCE CURRENTS
    NAME         CURRENT

    V_V1        -1.499E-05
    X_U1.V1      0.000E+00

    TOTAL POWER DISSIPATION   2.25E-04  WATTS


**** 10/17/19 12:20:15 ********* PSpice 9.2 (Mar 2000) ******** ID# 1 ********

 * C:\Users\Lapunik\Dropbox\PSpice\Schematics\prechodak_schematic.sch


 ****     OPERATING POINT INFORMATION      TEMPERATURE =   27.000 DEG C


******************************************************************************






**** VOLTAGE CONTROLLED SWITCHES


NAME         X_U1.S1   
MODEL        X_U1.Smod 
I LOAD       1.50E-05 
V LOAD       1.50E+01 
R LOAD       1.00E+06 
V CTRL       0.00E+00 
**** 10/17/19 12:20:15 ********* PSpice 9.2 (Mar 2000) ******** ID# 1 ********

 * C:\Users\Lapunik\Dropbox\PSpice\Schematics\prechodak_schematic.sch


 ****     INITIAL TRANSIENT SOLUTION       TEMPERATURE =   27.000 DEG C


******************************************************************************



 NODE   VOLTAGE     NODE   VOLTAGE     NODE   VOLTAGE     NODE   VOLTAGE


(X_U1.3)    0.0000 ($N_0001)   15.0000                   ($N_0002) 29.97E-09    

($N_0003)   14.9850                   




    VOLTAGE SOURCE CURRENTS
    NAME         CURRENT

    V_V1        -1.499E-05
    X_U1.V1      0.000E+00

    TOTAL POWER DISSIPATION   2.25E-04  WATTS



          JOB CONCLUDED

          TOTAL JOB TIME             .17
