
**** 12/09/19 11:26:06 ********* PSpice 9.2 (Mar 2000) ******** ID# 1 ********

 * C:\Users\Lapunik\Dropbox\PSpice\Schematics\Semestralka_filtr_k_odevzdani.sch


 ****     CIRCUIT DESCRIPTION


******************************************************************************




* Schematics Version 9.2
* Mon Dec 09 11:26:06 2019



** Analysis setup **
.ac DEC 1001 10 10.00K
.WCASE AC V([out]) YMAX
+  LIST VARY DEV LOW
.OP 


* From [PSPICE NETLIST] section of C:\Program Files\Orcad\PSpice\PSpice.ini:
.lib "C:\Users\Lapunik\Dropbox\PSpice\Knihovna_z_netu\nova\knihovna.lib"
.lib "nom.lib"

.INC "Semestralka_filtr_k_odevzdani.net"



**** INCLUDING Semestralka_filtr_k_odevzdani.net ****
* Schematics Netlist *



R_R1         0 out  1MEG  
X_0         in $N_0001 0 Second_order_filter PARAMS: rezistor_R1=9100
+  rezistor_R2=9100 kondenzator_C1=16n kondenzator_C2=51n
X_1         $N_0001 $N_0002 0 Second_order_filter PARAMS: rezistor_R1=2000
+  rezistor_R2=2000 kondenzator_C1=10n kondenzator_C2=330n
X_2         $N_0002 out 0 Second_order_filter PARAMS: rezistor_R1=4300
+  rezistor_R2=4300 kondenzator_C1=0.91n kondenzator_C2=390n
V_V8         in 0 DC 0V AC 1V 

**** RESUMING Semestralka_filtr_k_odevzdani.cir ****
.PROBE V(*) I(*) W(*) D(*) NOISE(*) 


.END

**** 12/09/19 11:26:06 ********* PSpice 9.2 (Mar 2000) ******** ID# 1 ********

 * C:\Users\Lapunik\Dropbox\PSpice\Schematics\Semestralka_filtr_k_odevzdani.sch


 ****     Diode MODEL PARAMETERS


******************************************************************************




               X_0.X_U2A.dx    X_0.X_U2A.dy    X_1.X_U2A.dx    X_1.X_U2A.dy    
          IS  800.000000E-18  800.000000E-18  800.000000E-18  800.000000E-18 
          RS    1               1.000000E-03    1               1.000000E-03 
         CJO                   10.000000E-12                   10.000000E-12 


               X_2.X_U2A.dx    X_2.X_U2A.dy    
          IS  800.000000E-18  800.000000E-18 
          RS    1               1.000000E-03 
         CJO                   10.000000E-12 


**** 12/09/19 11:26:06 ********* PSpice 9.2 (Mar 2000) ******** ID# 1 ********

 * C:\Users\Lapunik\Dropbox\PSpice\Schematics\Semestralka_filtr_k_odevzdani.sch


 ****     Junction FET MODEL PARAMETERS


******************************************************************************




               X_0.X_U2A.jx    X_1.X_U2A.jx    X_2.X_U2A.jx    
               NJF             NJF             NJF             
         VTO   -1              -1              -1            
        BETA  984.200000E-06  984.200000E-06  984.200000E-06 
          IS    2.500000E-12    2.500000E-12    2.500000E-12 


**** 12/09/19 11:26:06 ********* PSpice 9.2 (Mar 2000) ******** ID# 1 ********

 * C:\Users\Lapunik\Dropbox\PSpice\Schematics\Semestralka_filtr_k_odevzdani.sch


 ****     Resistor MODEL PARAMETERS


******************************************************************************




               X_0.Rodpor      X_1.Rodpor      X_2.Rodpor      
           R    1               1               1            


**** 12/09/19 11:26:06 ********* PSpice 9.2 (Mar 2000) ******** ID# 1 ********

 * C:\Users\Lapunik\Dropbox\PSpice\Schematics\Semestralka_filtr_k_odevzdani.sch


 ****     Capacitor MODEL PARAMETERS


******************************************************************************




               X_0.Ckapacita   X_1.Ckapacita   X_2.Ckapacita   
           C    1               1               1            


**** 12/09/19 11:26:06 ********* PSpice 9.2 (Mar 2000) ******** ID# 1 ********

 * C:\Users\Lapunik\Dropbox\PSpice\Schematics\Semestralka_filtr_k_odevzdani.sch


 ****     SMALL SIGNAL BIAS SOLUTION       TEMPERATURE =   27.000 DEG C

                      SENSITIVITY NOMINAL

******************************************************************************



 NODE   VOLTAGE     NODE   VOLTAGE     NODE   VOLTAGE     NODE   VOLTAGE


(   in)    0.0000  (  out)-48.43E-06  ($N_0001)-15.96E-06                       

($N_0002)-32.25E-06                   (X_0.$N_0001)  -18.0000                   

(X_0.$N_0002)   18.0000               (X_0.$N_0003) 424.2E-09                   

(X_0.$N_0004) 212.1E-09               (X_0.X_U2A.6) 2.065E-09                   

(X_0.X_U2A.7)-15.96E-06               (X_0.X_U2A.8)-15.96E-06                   

(X_0.X_U2A.9)    0.0000               (X_1.$N_0001)  -18.0000                   

(X_1.$N_0002)   18.0000               (X_1.$N_0003)-15.86E-06                   

(X_1.$N_0004)-15.91E-06               (X_1.X_U2A.6) 4.854E-09                   

(X_1.X_U2A.7)-32.25E-06               (X_1.X_U2A.8)-32.25E-06                   

(X_1.X_U2A.9)    0.0000               (X_2.$N_0001)  -18.0000                   

(X_2.$N_0002)   18.0000               (X_2.$N_0003)-32.05E-06                   

(X_2.$N_0004)-32.15E-06               (X_2.X_U2A.6) 7.548E-09                   

(X_2.X_U2A.7)-48.43E-06               (X_2.X_U2A.8)-48.43E-06                   

(X_2.X_U2A.9)    0.0000               (X_0.X_U2A.10)     .6546                  

(X_0.X_U2A.11)   17.6540              (X_0.X_U2A.12)   17.6540                  

(X_0.X_U2A.53)   16.5000              (X_0.X_U2A.54)  -16.5000                  

(X_0.X_U2A.90)-48.60E-09              (X_0.X_U2A.91)   50.0000                  

(X_0.X_U2A.92)  -50.0000              (X_0.X_U2A.99)    0.0000                  

(X_1.X_U2A.10)     .6546              (X_1.X_U2A.11)   17.6540                  

(X_1.X_U2A.12)   17.6540              (X_1.X_U2A.53)   16.5000                  

(X_1.X_U2A.54)  -16.5000              (X_1.X_U2A.90)-46.45E-09                  

(X_1.X_U2A.91)   50.0000              (X_1.X_U2A.92)  -50.0000                  

(X_1.X_U2A.99)    0.0000              (X_2.X_U2A.10)     .6546                  

(X_2.X_U2A.11)   17.6540              (X_2.X_U2A.12)   17.6540                  

(X_2.X_U2A.53)   16.5000              (X_2.X_U2A.54)  -16.5000                  

(X_2.X_U2A.90)-71.93E-09              (X_2.X_U2A.91)   50.0000                  

(X_2.X_U2A.92)  -50.0000              (X_2.X_U2A.99)    0.0000              




    VOLTAGE SOURCE CURRENTS
    NAME         CURRENT

    V_V8         2.331E-11
    X_0.V_V3    -2.034E-03
    X_0.V_V4    -2.035E-03
    X_1.V_V3    -2.034E-03
    X_1.V_V4    -2.035E-03
    X_2.V_V3    -2.034E-03
    X_2.V_V4    -2.035E-03
    X_0.X_U2A.vb   2.065E-14
    X_0.X_U2A.vc   1.650E-11
    X_0.X_U2A.ve   1.819E-11
    X_0.X_U2A.vlim  -4.860E-11
    X_0.X_U2A.vlp  -5.000E-11
    X_0.X_U2A.vln  -5.001E-11
    X_1.X_U2A.vb   4.854E-14
    X_1.X_U2A.vc   1.650E-11
    X_1.X_U2A.ve   1.819E-11
    X_1.X_U2A.vlim  -4.645E-11
    X_1.X_U2A.vlp  -5.000E-11
    X_1.X_U2A.vln  -5.001E-11
    X_2.X_U2A.vb   7.548E-14
    X_2.X_U2A.vc   1.650E-11
    X_2.X_U2A.ve   1.819E-11
    X_2.X_U2A.vlim  -7.193E-11
    X_2.X_U2A.vlp  -5.000E-11
    X_2.X_U2A.vln  -5.001E-11

    TOTAL POWER DISSIPATION   2.20E-01  WATTS


**** 12/09/19 11:26:06 ********* PSpice 9.2 (Mar 2000) ******** ID# 1 ********

 * C:\Users\Lapunik\Dropbox\PSpice\Schematics\Semestralka_filtr_k_odevzdani.sch


 ****     OPERATING POINT INFORMATION      TEMPERATURE =   27.000 DEG C

                      SENSITIVITY NOMINAL

******************************************************************************






**** VOLTAGE-CONTROLLED CURRENT SOURCES


NAME         X_0.X_U2A.ga            X_0.X_U2A.gcm         
I-SOURCE     1.114E-08               1.114E-08            

NAME         X_1.X_U2A.ga            X_1.X_U2A.gcm         
I-SOURCE     1.114E-08               1.114E-08            

NAME         X_2.X_U2A.ga            X_2.X_U2A.gcm         
I-SOURCE     1.113E-08               1.113E-08            


**** VOLTAGE-CONTROLLED VOLTAGE SOURCES


NAME         X_0.X_U2A.egnd          X_1.X_U2A.egnd        
V-SOURCE     0.000E+00               0.000E+00            
I-SOURCE     7.669E-07               7.678E-07            

NAME         X_2.X_U2A.egnd        
V-SOURCE     0.000E+00            
I-SOURCE     7.660E-07            


**** CURRENT-CONTROLLED CURRENT SOURCES


NAME         X_0.X_U2A.fb            X_1.X_U2A.fb          
I-SOURCE     4.792E-08               9.772E-08            

NAME         X_2.X_U2A.fb          
I-SOURCE     1.442E-07            


**** CURRENT-CONTROLLED VOLTAGE SOURCES


NAME         X_0.X_U2A.hlim          X_1.X_U2A.hlim        
V-SOURCE    -4.860E-08              -4.645E-08            
I-SOURCE     9.720E-20               9.290E-20            

NAME         X_2.X_U2A.hlim        
V-SOURCE    -7.193E-08            
I-SOURCE     1.439E-19            


**** DIODES


NAME         X_0.X_U2A.dc            X_0.X_U2A.de          
MODEL        X_0.X_U2A.dy            X_0.X_U2A.dy          
ID          -1.65E-11               -1.65E-11             
VD          -1.65E+01               -1.65E+01             
REQ          1.00E+12                1.00E+12             
CAP          2.39E-12                2.39E-12             

NAME         X_0.X_U2A.dlp           X_0.X_U2A.dln         
MODEL        X_0.X_U2A.dx            X_0.X_U2A.dx          
ID          -5.00E-11               -5.00E-11             
VD          -5.00E+01               -5.00E+01             
REQ          1.00E+12                1.00E+12             
CAP          0.00E+00                0.00E+00             

NAME         X_0.X_U2A.dp            X_1.X_U2A.dc          
MODEL        X_0.X_U2A.dx            X_1.X_U2A.dy          
ID          -3.60E-11               -1.65E-11             
VD          -3.60E+01               -1.65E+01             
REQ          1.00E+12                1.00E+12             
CAP          0.00E+00                2.39E-12             

NAME         X_1.X_U2A.de            X_1.X_U2A.dlp         
MODEL        X_1.X_U2A.dy            X_1.X_U2A.dx          
ID          -1.65E-11               -5.00E-11             
VD          -1.65E+01               -5.00E+01             
REQ          1.00E+12                1.00E+12             
CAP          2.39E-12                0.00E+00             

NAME         X_1.X_U2A.dln           X_1.X_U2A.dp          
MODEL        X_1.X_U2A.dx            X_1.X_U2A.dx          
ID          -5.00E-11               -3.60E-11             
VD          -5.00E+01               -3.60E+01             
REQ          1.00E+12                1.00E+12             
CAP          0.00E+00                0.00E+00             

NAME         X_2.X_U2A.dc            X_2.X_U2A.de          
MODEL        X_2.X_U2A.dy            X_2.X_U2A.dy          
ID          -1.65E-11               -1.65E-11             
VD          -1.65E+01               -1.65E+01             
REQ          1.00E+12                1.00E+12             
CAP          2.39E-12                2.39E-12             

NAME         X_2.X_U2A.dlp           X_2.X_U2A.dln         
MODEL        X_2.X_U2A.dx            X_2.X_U2A.dx          
ID          -5.00E-11               -5.00E-11             
VD          -5.00E+01               -5.00E+01             
REQ          1.00E+12                1.00E+12             
CAP          0.00E+00                0.00E+00             

NAME         X_2.X_U2A.dp          
MODEL        X_2.X_U2A.dx          
ID          -3.60E-11             
VD          -3.60E+01             
REQ          1.00E+12             
CAP          0.00E+00             


**** JFETS


NAME         X_0.X_U2A.j1            X_0.X_U2A.j2          
MODEL        X_0.X_U2A.jx            X_0.X_U2A.jx          
ID           1.17E-04                1.17E-04             
VGS         -6.55E-01               -6.55E-01             
VDS          1.70E+01                1.70E+01             
GM           6.80E-04                6.80E-04             
GDS          0.00E+00                0.00E+00             
CGS          0.00E+00                0.00E+00             
CGD          0.00E+00                0.00E+00             

NAME         X_1.X_U2A.j1            X_1.X_U2A.j2          
MODEL        X_1.X_U2A.jx            X_1.X_U2A.jx          
ID           1.17E-04                1.17E-04             
VGS         -6.55E-01               -6.55E-01             
VDS          1.70E+01                1.70E+01             
GM           6.80E-04                6.80E-04             
GDS          0.00E+00                0.00E+00             
CGS          0.00E+00                0.00E+00             
CGD          0.00E+00                0.00E+00             

NAME         X_2.X_U2A.j1            X_2.X_U2A.j2          
MODEL        X_2.X_U2A.jx            X_2.X_U2A.jx          
ID           1.17E-04                1.17E-04             
VGS         -6.55E-01               -6.55E-01             
VDS          1.70E+01                1.70E+01             
GM           6.80E-04                6.80E-04             
GDS          0.00E+00                0.00E+00             
CGS          0.00E+00                0.00E+00             
CGD          0.00E+00                0.00E+00              NODE   VOLTAGE     NODE   VOLTAGE     NODE   VOLTAGE     NODE   VOLTAGE


(   in)    0.0000  (  out)-48.43E-06  ($N_0001)-15.96E-06                       

($N_0002)-32.25E-06                   (X_0.$N_0001)  -18.0000                   

(X_0.$N_0002)   18.0000               (X_0.$N_0003) 424.2E-09                   

(X_0.$N_0004) 212.1E-09               (X_0.X_U2A.6) 2.038E-09                   

(X_0.X_U2A.7)-15.96E-06               (X_0.X_U2A.8)-15.96E-06                   

(X_0.X_U2A.9)    0.0000               (X_1.$N_0001)  -18.0000                   

(X_1.$N_0002)   18.0000               (X_1.$N_0003)-15.86E-06                   

(X_1.$N_0004)-15.91E-06               (X_1.X_U2A.6) 4.854E-09                   

(X_1.X_U2A.7)-32.25E-06               (X_1.X_U2A.8)-32.25E-06                   

(X_1.X_U2A.9)    0.0000               (X_2.$N_0001)  -18.0000                   

(X_2.$N_0002)   18.0000               (X_2.$N_0003)-32.05E-06                   

(X_2.$N_0004)-32.15E-06               (X_2.X_U2A.6) 7.586E-09                   

(X_2.X_U2A.7)-48.43E-06               (X_2.X_U2A.8)-48.43E-06                   

(X_2.X_U2A.9)    0.0000               (X_0.X_U2A.10)     .6546                  

(X_0.X_U2A.11)   17.6540              (X_0.X_U2A.12)   17.6540                  

(X_0.X_U2A.53)   16.5000              (X_0.X_U2A.54)  -16.5000                  

(X_0.X_U2A.90)-46.62E-09              (X_0.X_U2A.91)   50.0000                  

(X_0.X_U2A.92)  -50.0000              (X_0.X_U2A.99)    0.0000                  

(X_1.X_U2A.10)     .6546              (X_1.X_U2A.11)   17.6540                  

(X_1.X_U2A.12)   17.6540              (X_1.X_U2A.53)   16.5000                  

(X_1.X_U2A.54)  -16.5000              (X_1.X_U2A.90)-50.23E-09                  

(X_1.X_U2A.91)   50.0000              (X_1.X_U2A.92)  -50.0000                  

(X_1.X_U2A.99)    0.0000              (X_2.X_U2A.10)     .6546                  

(X_2.X_U2A.11)   17.6540              (X_2.X_U2A.12)   17.6540                  

(X_2.X_U2A.53)   16.5000              (X_2.X_U2A.54)  -16.5000                  

(X_2.X_U2A.90)-71.74E-09              (X_2.X_U2A.91)   50.0000                  

(X_2.X_U2A.92)  -50.0000              (X_2.X_U2A.99)    0.0000              




    VOLTAGE SOURCE CURRENTS
    NAME         CURRENT

    V_V8         2.331E-11
    X_0.V_V3    -2.034E-03
    X_0.V_V4    -2.035E-03
    X_1.V_V3    -2.034E-03
    X_1.V_V4    -2.035E-03
    X_2.V_V3    -2.034E-03
    X_2.V_V4    -2.035E-03
    X_0.X_U2A.vb   2.038E-14
    X_0.X_U2A.vc   1.650E-11
    X_0.X_U2A.ve   1.819E-11
    X_0.X_U2A.vlim  -4.662E-11
    X_0.X_U2A.vlp  -5.000E-11
    X_0.X_U2A.vln  -5.001E-11
    X_1.X_U2A.vb   4.854E-14
    X_1.X_U2A.vc   1.650E-11
    X_1.X_U2A.ve   1.819E-11
    X_1.X_U2A.vlim  -5.023E-11
    X_1.X_U2A.vlp  -5.000E-11
    X_1.X_U2A.vln  -5.001E-11
    X_2.X_U2A.vb   7.585E-14
    X_2.X_U2A.vc   1.650E-11
    X_2.X_U2A.ve   1.688E-11
    X_2.X_U2A.vlim  -7.174E-11
    X_2.X_U2A.vlp  -5.000E-11
    X_2.X_U2A.vln  -5.001E-11

    TOTAL POWER DISSIPATION   2.20E-01  WATTS




**** VOLTAGE-CONTROLLED CURRENT SOURCES


NAME         X_0.X_U2A.ga            X_0.X_U2A.gcm         
I-SOURCE     1.114E-08               1.114E-08            

NAME         X_1.X_U2A.ga            X_1.X_U2A.gcm         
I-SOURCE     1.114E-08               1.114E-08            

NAME         X_2.X_U2A.ga            X_2.X_U2A.gcm         
I-SOURCE     1.113E-08               1.113E-08            


**** VOLTAGE-CONTROLLED VOLTAGE SOURCES


NAME         X_0.X_U2A.egnd          X_1.X_U2A.egnd        
V-SOURCE     0.000E+00               0.000E+00            
I-SOURCE     7.660E-07               7.678E-07            

NAME         X_2.X_U2A.egnd        
V-SOURCE     0.000E+00            
I-SOURCE     7.660E-07            


**** CURRENT-CONTROLLED CURRENT SOURCES


NAME         X_0.X_U2A.fb            X_1.X_U2A.fb          
I-SOURCE    -2.689E-06              -2.593E-06            

NAME         X_2.X_U2A.fb          
I-SOURCE    -2.501E-06            


**** CURRENT-CONTROLLED VOLTAGE SOURCES


NAME         X_0.X_U2A.hlim          X_1.X_U2A.hlim        
V-SOURCE    -4.662E-08              -5.023E-08            
I-SOURCE     9.324E-20               1.005E-19            

NAME         X_2.X_U2A.hlim        
V-SOURCE    -7.174E-08            
I-SOURCE     1.435E-19            


**** DIODES


NAME         X_0.X_U2A.dc            X_0.X_U2A.de          
MODEL        X_0.X_U2A.dy            X_0.X_U2A.dy          
ID          -1.65E-11               -1.65E-11             
VD          -1.65E+01               -1.65E+01             
REQ          1.00E+12                1.00E+12             
CAP          2.39E-12                2.39E-12             

NAME         X_0.X_U2A.dlp           X_0.X_U2A.dln         
MODEL        X_0.X_U2A.dx            X_0.X_U2A.dx          
ID          -5.00E-11               -5.00E-11             
VD          -5.00E+01               -5.00E+01             
REQ          1.00E+12                1.00E+12             
CAP          0.00E+00                0.00E+00             

NAME         X_0.X_U2A.dp            X_1.X_U2A.dc          
MODEL        X_0.X_U2A.dx            X_1.X_U2A.dy          
ID          -3.60E-11               -1.65E-11             
VD          -3.60E+01               -1.65E+01             
REQ          1.00E+12                1.00E+12             
CAP          0.00E+00                2.39E-12             

NAME         X_1.X_U2A.de            X_1.X_U2A.dlp         
MODEL        X_1.X_U2A.dy            X_1.X_U2A.dx          
ID          -1.65E-11               -5.00E-11             
VD          -1.65E+01               -5.00E+01             
REQ          1.00E+12                1.00E+12             
CAP          2.39E-12                0.00E+00             

NAME         X_1.X_U2A.dln           X_1.X_U2A.dp          
MODEL        X_1.X_U2A.dx            X_1.X_U2A.dx          
ID          -5.00E-11               -3.60E-11             
VD          -5.00E+01               -3.60E+01             
REQ          1.00E+12                1.00E+12             
CAP          0.00E+00                0.00E+00             

NAME         X_2.X_U2A.dc            X_2.X_U2A.de          
MODEL        X_2.X_U2A.dy            X_2.X_U2A.dy          
ID          -1.65E-11               -1.65E-11             
VD          -1.65E+01               -1.65E+01             
REQ          1.00E+12                1.00E+12             
CAP          2.39E-12                2.39E-12             

NAME         X_2.X_U2A.dlp           X_2.X_U2A.dln         
MODEL        X_2.X_U2A.dx            X_2.X_U2A.dx          
ID          -5.00E-11               -5.00E-11             
VD          -5.00E+01               -5.00E+01             
REQ          1.00E+12                1.00E+12             
CAP          0.00E+00                0.00E+00             

NAME         X_2.X_U2A.dp          
MODEL        X_2.X_U2A.dx          
ID          -3.60E-11             
