
**** 11/14/19 18:30:58 ********* PSpice 9.2 (Mar 2000) ******** ID# 1 ********

 * C:\Users\Lapunik\Dropbox\PSpice\Schematics\usmernovac_schematic.sch


 ****     CIRCUIT DESCRIPTION


******************************************************************************




* Schematics Version 9.2
* Thu Oct 17 11:33:46 2019



** Analysis setup **
.tran 100u 100m 0 100u
.OP 


* From [PSPICE NETLIST] section of C:\Program Files\Orcad\PSpice\PSpice.ini:
.lib "nom.lib"

.INC "usmernovac_schematic.net"



**** INCLUDING usmernovac_schematic.net ****
* Schematics Netlist *



D_D1         in out D1N4007 
D_D2         0 out D1N4007 
D_D4         out- 0 D1N4007 
D_D3         out- in D1N4007 
R_R1         out- out  1MEG  
V_V1         in 0  AC 30
+SIN 0 30 50 0 0 0

**** RESUMING usmernovac_schematic.cir ****
.PROBE V(*) I(*) W(*) D(*) NOISE(*) 


.END

**** 11/14/19 18:30:58 ********* PSpice 9.2 (Mar 2000) ******** ID# 1 ********

 * C:\Users\Lapunik\Dropbox\PSpice\Schematics\usmernovac_schematic.sch


 ****     Diode MODEL PARAMETERS


******************************************************************************




               D1N4007         D1N4001         
          IS   14.110000E-09   14.110000E-09 
           N    1.984           1.984        
         IKF   94.81           94.81         
          BV    1.500000E+03   75            
         IBV   10.000000E-06   10.000000E-06 
          RS     .03389          .03389      
          TT    5.700000E-06    5.700000E-06 
         CJO   25.890000E-12   25.890000E-12 
          VJ     .3245           .3245       
           M     .44             .44         


**** 11/14/19 18:30:58 ********* PSpice 9.2 (Mar 2000) ******** ID# 1 ********

 * C:\Users\Lapunik\Dropbox\PSpice\Schematics\usmernovac_schematic.sch


 ****     SMALL SIGNAL BIAS SOLUTION       TEMPERATURE =   27.000 DEG C


******************************************************************************



 NODE   VOLTAGE     NODE   VOLTAGE     NODE   VOLTAGE     NODE   VOLTAGE


(   in)    0.0000  (  out)-13.93E-15  ( out-) 13.93E-15  




    VOLTAGE SOURCE CURRENTS
    NAME         CURRENT

    V_V1         4.350E-29

    TOTAL POWER DISSIPATION   0.00E+00  WATTS


**** 11/14/19 18:30:58 ********* PSpice 9.2 (Mar 2000) ******** ID# 1 ********

 * C:\Users\Lapunik\Dropbox\PSpice\Schematics\usmernovac_schematic.sch


 ****     OPERATING POINT INFORMATION      TEMPERATURE =   27.000 DEG C


******************************************************************************






**** DIODES


NAME         D_D1        D_D2        D_D4        D_D3      
MODEL        D1N4007     D1N4007     D1N4007     D1N4007   
ID           3.83E-21    3.83E-21    3.83E-21    3.83E-21 
VD           1.39E-14    1.39E-14    1.39E-14    1.39E-14 
REQ          3.64E+06    3.64E+06    3.64E+06    3.64E+06 
CAP          2.75E-11    2.75E-11    2.75E-11    2.75E-11 
**** 11/14/19 18:30:58 ********* PSpice 9.2 (Mar 2000) ******** ID# 1 ********

 * C:\Users\Lapunik\Dropbox\PSpice\Schematics\usmernovac_schematic.sch


 ****     INITIAL TRANSIENT SOLUTION       TEMPERATURE =   27.000 DEG C


******************************************************************************



 NODE   VOLTAGE     NODE   VOLTAGE     NODE   VOLTAGE     NODE   VOLTAGE


(   in)    0.0000  (  out)-13.93E-15  ( out-) 13.93E-15  




    VOLTAGE SOURCE CURRENTS
    NAME         CURRENT

    V_V1         4.350E-29

    TOTAL POWER DISSIPATION   0.00E+00  WATTS



          JOB CONCLUDED

          TOTAL JOB TIME             .14
