
**** 10/17/19 12:09:45 ********* PSpice 9.2 (Mar 2000) ******** ID# 1 ********

 ***pocatecni_podminky.cir***


 ****     CIRCUIT DESCRIPTION


******************************************************************************




.LIB "nom.lib"

.PARAM odpor1 = 100 odpor2 = 10k kapacita = 1n
* definice pocatecnich podminek
*1. moznost: definuji napeti na kondenzatoru /proud civkou
*C<jmeno><uzel+><uzel->[model]<hodnota>[IC=<hodnota>]; neni proud kolektorem (IC = pocatecni podminka), napeti na kondenzatoru je de
*L<jmeno><uzel+><uzel->[model]<hodnota>[IC=<hodnota>]; proud civkou je definovany pomoci hodnoty IC
*2. moznost: definuji napeti v uzlu prikazem .IC
*.IC V<jmeno><hodnota>; v uzlu jmeno je na pocatku hodnota proti zemi

*asynchroni bistabilni klopak (blikac, aspon myslim)

V1 1 0 DC 15
R1 1 2 {odpor1}
R2 1 3 {odpor2}
R3 1 4 {odpor2}
R4 1 5 {odpor1} 
C1 2 4 {kapacita}; IC = 0
C2 5 3 {kapacita}
.IC V(2,4) = 0; stejne jako dva radky vyse, mezi uzly 2 a 4 je na zacatku simulace nulove napeti

*definice tranzistoru: Q<jmeno><uzelC><uzelB><uzelE><model>
Q1 2 3 0 Q2N2222
Q2 5 4 0 Q2N2222; v simulaci se nerozkmital protoze jsou oba tranzistory uplne stejny

.OP
.TRAN 100n 100u 0 100u
.PROBE V(2) V(5)

.END  

**** 10/17/19 12:09:45 ********* PSpice 9.2 (Mar 2000) ******** ID# 1 ********

 ***pocatecni_podminky.cir***


 ****     BJT MODEL PARAMETERS


******************************************************************************




               Q2N2222         
               NPN             
          IS   14.340000E-15 
          BF  255.9          
          NF    1            
         VAF   74.03         
         IKF     .2847       
         ISE   14.340000E-15 
          NE    1.307        
          BR    6.092        
          NR    1            
          RB   10            
          RC    1            
         CJE   22.010000E-12 
         MJE     .377        
         CJC    7.306000E-12 
         MJC     .3416       
          TF  411.100000E-12 
         XTF    3            
         VTF    1.7          
         ITF     .6          
          TR   46.910000E-09 
         XTB    1.5          
          CN    2.42         
           D     .87         


**** 10/17/19 12:09:45 ********* PSpice 9.2 (Mar 2000) ******** ID# 1 ********

 ***pocatecni_podminky.cir***


 ****     SMALL SIGNAL BIAS SOLUTION       TEMPERATURE =   27.000 DEG C


******************************************************************************



 NODE   VOLTAGE     NODE   VOLTAGE     NODE   VOLTAGE     NODE   VOLTAGE


(    1)   15.0000  (    2)     .2718  (    3)     .8009  (    4)     .2718      

(    5)   15.0000  




    VOLTAGE SOURCE CURRENTS
    NAME         CURRENT

    V1          -1.502E-01

    TOTAL POWER DISSIPATION   2.25E+00  WATTS


**** 10/17/19 12:09:45 ********* PSpice 9.2 (Mar 2000) ******** ID# 1 ********

 ***pocatecni_podminky.cir***


 ****     OPERATING POINT INFORMATION      TEMPERATURE =   27.000 DEG C


******************************************************************************






**** BIPOLAR JUNCTION TRANSISTORS


NAME         Q1          Q2        
MODEL        Q2N2222     Q2N2222   
IB           1.42E-03    4.42E-11 
IC           1.49E-01    6.51E-10 
VBE          8.01E-01    2.72E-01 
VBC          5.29E-01   -1.47E+01 
VCE          2.72E-01    1.50E+01 
BETADC       1.05E+02    1.47E+01 
GM           4.28E+00    2.44E-08 
RPI          2.46E+01    7.15E+08 
RX           1.00E+01    1.00E+01 
RO           1.93E+01    1.18E+11 
CBE          3.42E-09    2.61E-11 
CBC          3.63E-09    2.60E-12 
CJS          0.00E+00    0.00E+00 
BETAAC       1.05E+02    1.74E+01 
CBX/CBX2     0.00E+00    0.00E+00 
FT/FT2       9.66E+07    1.35E+02 


**** 10/17/19 12:09:45 ********* PSpice 9.2 (Mar 2000) ******** ID# 1 ********

 ***pocatecni_podminky.cir***


 ****     INITIAL TRANSIENT SOLUTION       TEMPERATURE =   27.000 DEG C


******************************************************************************



 NODE   VOLTAGE     NODE   VOLTAGE     NODE   VOLTAGE     NODE   VOLTAGE


(    1)   15.0000  (    2)     .2718  (    3)     .8009  (    4)     .2718      

(    5)   15.0000  




    VOLTAGE SOURCE CURRENTS
    NAME         CURRENT

    V1          -1.502E-01

    TOTAL POWER DISSIPATION   2.25E+00  WATTS



          JOB CONCLUDED

          TOTAL JOB TIME             .14
