
**** 11/21/19 11:28:06 ********* PSpice 9.2 (Mar 2000) ******** ID# 1 ********

 ***statistika_tran_histogram.cir***


 ****     CIRCUIT DESCRIPTION


******************************************************************************




.LIB "nom.lib"

*napetovy delic
V1 1 0 DC 10
R1 1 2 Rodpor 1k
R2 2 0 Rodpor 1k

.MODEL Rodpor RES R=1 DEV 10%

.OP

.TRAN 1u 1m 0 1u
*.TRAN 1u 1m 1m 1u; vykresleni pouze v jednom bode, do jednoho mili od jednoho mili

*.MC 20 TRAN V(2) YMAX OUTPUT ALL; 20 bhu analyzy pro vystupni napeti delice a hleam nejhorsi vysledky od nominalni hodnoty a vykres
.WCASE TRAN V(2) YMAX LOW

.PROBE V(2)

.END

**** 11/21/19 11:28:06 ********* PSpice 9.2 (Mar 2000) ******** ID# 1 ********

 ***statistika_tran_histogram.cir***


 ****     Resistor MODEL PARAMETERS


******************************************************************************




               Rodpor          
           R    1            


**** 11/21/19 11:28:06 ********* PSpice 9.2 (Mar 2000) ******** ID# 1 ********

 ***statistika_tran_histogram.cir***


 ****     SMALL SIGNAL BIAS SOLUTION       TEMPERATURE =   27.000 DEG C

                      SENSITIVITY NOMINAL

******************************************************************************



 NODE   VOLTAGE     NODE   VOLTAGE     NODE   VOLTAGE     NODE   VOLTAGE


(    1)   10.0000  (    2)    5.0000  




    VOLTAGE SOURCE CURRENTS
    NAME         CURRENT

    V1          -5.000E-03

    TOTAL POWER DISSIPATION   5.00E-02  WATTS


**** 11/21/19 11:28:06 ********* PSpice 9.2 (Mar 2000) ******** ID# 1 ********

 ***statistika_tran_histogram.cir***


 ****     OPERATING POINT INFORMATION      TEMPERATURE =   27.000 DEG C

                      SENSITIVITY NOMINAL

******************************************************************************




**** 11/21/19 11:28:06 ********* PSpice 9.2 (Mar 2000) ******** ID# 1 ********

 ***statistika_tran_histogram.cir***


 ****     INITIAL TRANSIENT SOLUTION       TEMPERATURE =   27.000 DEG C

                      SENSITIVITY NOMINAL

******************************************************************************



 NODE   VOLTAGE     NODE   VOLTAGE     NODE   VOLTAGE     NODE   VOLTAGE


(    1)   10.0000  (    2)    5.0000  




    VOLTAGE SOURCE CURRENTS
    NAME         CURRENT

    V1          -5.000E-03

    TOTAL POWER DISSIPATION   5.00E-02  WATTS

 NODE   VOLTAGE     NODE   VOLTAGE     NODE   VOLTAGE     NODE   VOLTAGE


(    1)   10.0000  (    2)    4.9975  




    VOLTAGE SOURCE CURRENTS
    NAME         CURRENT

    V1          -4.998E-03

    TOTAL POWER DISSIPATION   5.00E-02  WATTS

 NODE   VOLTAGE     NODE   VOLTAGE     NODE   VOLTAGE     NODE   VOLTAGE


(    1)   10.0000  (    2)    5.0025  




    VOLTAGE SOURCE CURRENTS
    NAME         CURRENT

    V1          -4.998E-03

    TOTAL POWER DISSIPATION   5.00E-02  WATTS



Mean Deviation =    0     
Sigma          =    2.4991E-03

 RUN                    MAX DEVIATION FROM NOMINAL

R1 RODPOR R            2.4991E-03  (1.00 sigma)  lower  at T =   10.0000E-09
                        (    .4998% change per 1% change in Model Parameter)

R2 RODPOR R            2.4991E-03  (1.00 sigma)  higher  at T =   10.0000E-09
                        (    .4998% change per 1% change in Model Parameter)


**** 11/21/19 11:28:06 ********* PSpice 9.2 (Mar 2000) ******** ID# 1 ********

 ***statistika_tran_histogram.cir***


 ****     INITIAL TRANSIENT SOLUTION       TEMPERATURE =   27.000 DEG C

                      WORST CASE ALL DEVICES

******************************************************************************



 NODE   VOLTAGE     NODE   VOLTAGE     NODE   VOLTAGE     NODE   VOLTAGE


(    1)   10.0000  (    2)    4.5000  




    VOLTAGE SOURCE CURRENTS
    NAME         CURRENT

    V1          -5.000E-03

    TOTAL POWER DISSIPATION   5.00E-02  WATTS


**** 11/21/19 11:28:06 ********* PSpice 9.2 (Mar 2000) ******** ID# 1 ********

 ***statistika_tran_histogram.cir***


 ****     UPDATED MODEL PARAMETERS         TEMPERATURE =   27.000 DEG C

                      WORST CASE ALL DEVICES

******************************************************************************



Device       MODEL        PARAMETER    NEW VALUE    
R1           Rodpor       R               1.1           (Increased)  
R2           Rodpor       R                .9           (Decreased)  
    

**** 11/21/19 11:28:06 ********* PSpice 9.2 (Mar 2000) ******** ID# 1 ********

 ***statistika_tran_histogram.cir***


 ****     SORTED DEVIATIONS OF V(2)        TEMPERATURE =   27.000 DEG C

                      WORST CASE SUMMARY

******************************************************************************





Mean Deviation =    -.5   
Sigma          =    0     

 RUN                    MAX DEVIATION FROM NOMINAL

WORST CASE ALL DEVICES
                         .5     lower  at T =   10.0000E-09
                        ( 110   % of Nominal)



          JOB CONCLUDED

          TOTAL JOB TIME             .30
